 time            v(sh)           v(pre)          v(rst)          v(sen)          v(d)            v(CompOut)      v(AOut)         v(STO+_RCL-)    v(sto-_rcl+)    v(c+)           v(c-)          
 0.00000000e+00  0.00000000e+00  0.00000000e+00  0.00000000e+00  0.00000000e+00  1.79999997e+00  1.79999938e+00  5.11929779e-03  2.48494660e-07  2.48494675e-07  1.48726193e+00  9.00900236e-01 
 1.00000000e-09  0.00000000e+00  1.80000000e-02  0.00000000e+00  0.00000000e+00  1.79999997e+00  1.79999938e+00  5.11931290e-03  2.53300024e-07  2.53276339e-07  1.48726633e+00  9.00904644e-01 
 2.00000000e-09  0.00000000e+00  3.60000000e-02  0.00000000e+00  0.00000000e+00  1.79999997e+00  1.79999939e+00  5.11932655e-03  2.53781399e-07  2.53718458e-07  1.48727073e+00  9.00909048e-01 
 4.00000000e-09  0.00000000e+00  7.20000000e-02  0.00000000e+00  0.00000000e+00  1.79999998e+00  1.79999939e+00  5.11935131e-03  2.54037922e-07  2.53896587e-07  1.48727953e+00  9.00917858e-01 
 8.00000000e-09  0.00000000e+00  1.44000000e-01  0.00000000e+00  0.00000000e+00  1.79999998e+00  1.79999939e+00  5.11939498e-03  2.54162899e-07  2.53912170e-07  1.48729714e+00  9.00935477e-01 
 1.60000000e-08  0.00000000e+00  2.88000000e-01  0.00000000e+00  0.00000000e+00  1.79999998e+00  1.79999939e+00  5.11948213e-03  2.54307320e-07  2.53962233e-07  1.48733234e+00  9.00970725e-01 
 3.20000000e-08  0.00000000e+00  5.76000000e-01  0.00000000e+00  0.00000000e+00  1.79999998e+00  1.79999939e+00  5.11965968e-03  2.54271063e-07  2.53877902e-07  1.48740257e+00  9.01041200e-01 
 6.40000000e-08  0.00000000e+00  1.15200000e+00  0.00000000e+00  0.00000000e+00  1.80002595e+00  1.80000103e+00  5.60260222e-03  1.08946683e-05  7.39927624e-06  1.74739090e+00  8.80164428e-01 
 9.44867053e-08  0.00000000e+00  1.70076070e+00  0.00000000e+00  0.00000000e+00  1.79993671e+00  1.79999727e+00  5.66633670e-03 -2.07495805e-05 -2.05472042e-05  1.83293463e+00  5.37566255e-01 
 1.00000000e-07  0.00000000e+00  1.80000000e+00  0.00000000e+00  0.00000000e+00  1.79995247e+00  1.79999692e+00  5.67184550e-03  1.89790110e-06  3.67331922e-07  1.80188182e+00  4.93318906e-01 
 1.02025169e-07  0.00000000e+00  1.80000000e+00  0.00000000e+00  0.00000000e+00  1.79995865e+00  1.80000087e+00  5.66930567e-03  9.53782201e-07 -1.47451146e-07  1.80113956e+00  4.97373817e-01 
 1.06075508e-07  0.00000000e+00  1.80000000e+00  0.00000000e+00  0.00000000e+00  1.79997136e+00  1.80000227e+00  5.66460166e-03  3.91685444e-08 -8.94901310e-07  1.80024065e+00  5.00562486e-01 
 1.14176185e-07  0.00000000e+00  1.80000000e+00  0.00000000e+00  0.00000000e+00  1.79998926e+00  1.79999883e+00  5.65063633e-03  3.61557808e-07  8.18289429e-08  1.79996822e+00  4.99713807e-01 
 1.30377540e-07  0.00000000e+00  1.80000000e+00  0.00000000e+00  0.00000000e+00  1.80000163e+00  1.79999961e+00  5.64983334e-03  1.01537175e-07  2.50839468e-07  1.80001365e+00  5.00206629e-01 
 1.60870280e-07  0.00000000e+00  1.80000000e+00  0.00000000e+00  0.00000000e+00  1.79999764e+00  1.79999924e+00  5.65179948e-03  3.47362971e-07  3.54056694e-07  1.79999041e+00  4.99826487e-01 
 2.21855760e-07  0.00000000e+00  1.80000000e+00  0.00000000e+00  0.00000000e+00  1.80000207e+00  1.79999948e+00  5.64931221e-03  1.51486323e-07  2.88979837e-07  1.80000720e+00  5.00159487e-01 
 3.43826721e-07  0.00000000e+00  1.80000000e+00  0.00000000e+00  0.00000000e+00  1.79999789e+00  1.79999929e+00  5.65195610e-03  3.31027651e-07  3.18194231e-07  1.79999285e+00  4.99846050e-01 
 4.00000000e-07  0.00000000e+00  1.80000000e+00  0.00000000e+00  0.00000000e+00  1.80000185e+00  1.79999945e+00  5.64926577e-03  1.66637590e-07  2.68544980e-07  1.80000512e+00  5.00139017e-01 
 4.10000000e-07  0.00000000e+00  1.62000000e+00  0.00000000e+00  0.00000000e+00  1.80000010e+00  1.79999939e+00  5.65060928e-03  2.31619128e-07  2.82088442e-07  1.79999051e+00  5.00001511e-01 
 4.30000000e-07  0.00000000e+00  1.26000000e+00  0.00000000e+00  0.00000000e+00  1.79999980e+00  1.79999938e+00  5.65070946e-03  2.40480689e-07  2.76930338e-07  1.79998376e+00  4.99795098e-01 
 4.70000000e-07  0.00000000e+00  5.40000000e-01  0.00000000e+00  0.00000000e+00  1.79999999e+00  1.79999937e+00  5.65149493e-03  2.67019486e-07  3.06459633e-07  1.80072833e+00  4.99770331e-01 
 5.00000000e-07  0.00000000e+00  0.00000000e+00  0.00000000e+00  0.00000000e+00  1.79999989e+00  1.79999939e+00  5.65144642e-03  2.09487006e-07  2.43254473e-07  1.80059352e+00  4.99641451e-01 
 5.04238897e-07  0.00000000e+00  0.00000000e+00  0.00000000e+00  0.00000000e+00  1.79999990e+00  1.79999938e+00  5.65139938e-03  2.42759050e-07  2.76514387e-07  1.80059291e+00  4.99641780e-01 
 5.12716691e-07  0.00000000e+00  0.00000000e+00  0.00000000e+00  0.00000000e+00  1.79999993e+00  1.79999938e+00  5.65138848e-03  2.43775056e-07  2.77529380e-07  1.80059197e+00  4.99642656e-01 
 5.29672278e-07  0.00000000e+00  0.00000000e+00  0.00000000e+00  0.00000000e+00  1.79999994e+00  1.79999938e+00  5.65139213e-03  2.43148321e-07  2.75852281e-07  1.80059009e+00  4.99644389e-01 
 5.63583454e-07  0.00000000e+00  0.00000000e+00  0.00000000e+00  0.00000000e+00  1.79999996e+00  1.79999938e+00  5.65137474e-03  2.44667413e-07  2.75515705e-07  1.80058633e+00  4.99647857e-01 
 6.31405804e-07  0.00000000e+00  0.00000000e+00  0.00000000e+00  0.00000000e+00  1.79999995e+00  1.79999938e+00  5.65138358e-03  2.43289860e-07  2.69384913e-07  1.80057881e+00  4.99654791e-01 
 7.67050506e-07  0.00000000e+00  0.00000000e+00  0.00000000e+00  0.00000000e+00  1.79999996e+00  1.79999938e+00  5.65135508e-03  2.44843035e-07  2.64134430e-07  1.80056378e+00  4.99668656e-01 
 1.03833991e-06  0.00000000e+00  0.00000000e+00  0.00000000e+00  0.00000000e+00  1.79999995e+00  1.79999938e+00  5.65133646e-03  2.43595127e-07  2.53989622e-07  1.80053372e+00  4.99696366e-01 
 1.53833991e-06  0.00000000e+00  0.00000000e+00  0.00000000e+00  0.00000000e+00  1.79999996e+00  1.79999938e+00  5.65125064e-03  2.45356759e-07  2.49325274e-07  1.80047834e+00  4.99747368e-01 
 2.00000000e-06  0.00000000e+00  0.00000000e+00  0.00000000e+00  0.00000000e+00  1.79999995e+00  1.79999938e+00  5.65119490e-03  2.44147916e-07  2.46514169e-07  1.80042723e+00  4.99794383e-01 
 2.00010000e-06  1.80000000e-01  0.00000000e+00  0.00000000e+00  0.00000000e+00  1.79999996e+00  1.79999937e+00  5.65122981e-03  3.86235692e-07  3.86597640e-07  1.80047169e+00  4.99838866e-01 
 2.00030000e-06  5.40000000e-01  0.00000000e+00  0.00000000e+00  0.00000000e+00  1.80000001e+00  1.79999936e+00  5.65137219e-03  5.17322160e-07  5.07226013e-07  1.80056014e+00  4.99927529e-01 
 2.00070000e-06  1.26000000e+00  0.00000000e+00  0.00000000e+00  0.00000000e+00  1.79998485e+00  1.80000298e+00  5.60081948e-03 -2.43420489e-05  2.29892483e-05  1.76789664e+00  5.31805978e-01 
 2.00100000e-06  1.80000000e+00  0.00000000e+00  0.00000000e+00  0.00000000e+00  1.79994726e+00  1.80001035e+00  5.43851253e-03 -5.19883142e-05  5.54779680e-05  1.70347700e+00  5.96856006e-01 
 2.00104475e-06  1.80000000e+00  0.00000000e+00  0.00000000e+00  0.00000000e+00  1.79993918e+00  1.80001167e+00  5.40031662e-03 -5.41307334e-05  5.73638287e-05  1.69195283e+00  6.08407840e-01 
 2.00113426e-06  1.80000000e+00  0.00000000e+00  0.00000000e+00  0.00000000e+00  1.79992300e+00  1.80001399e+00  5.32828122e-03 -5.63753798e-05  5.94978361e-05  1.66977271e+00  6.30619534e-01 
 2.00131327e-06  1.80000000e+00  0.00000000e+00  0.00000000e+00  0.00000000e+00  1.79989233e+00  1.80001494e+00  5.22715536e-03 -5.50725101e-05  5.86689775e-05  1.63015656e+00  6.70285672e-01 
 2.00167129e-06  1.80000000e+00  0.00000000e+00  0.00000000e+00  0.00000000e+00  1.79984115e+00  1.80002084e+00  5.13444087e-03 -4.99235017e-05  5.03937750e-05  1.56586908e+00  7.34651979e-01 
 2.00238733e-06  1.80000000e+00  0.00000000e+00  0.00000000e+00  0.00000000e+00  1.79979859e+00  1.80002022e+00  5.01985690e-03 -4.33743673e-05  5.59295984e-05  1.47583388e+00  8.24812795e-01 
 2.00381940e-06  1.80000000e+00  0.00000000e+00  0.00000000e+00  0.00000000e+00  1.79975762e+00  1.79980729e+00  4.61237829e-03 -3.48921983e-05  5.81624871e-05  1.36931224e+00  9.31504069e-01 
 2.00610470e-06  1.80000000e+00  0.00000000e+00  0.00000000e+00  0.00000000e+00  1.79969443e+00  1.79985861e+00  3.80587228e-03 -1.21035274e-05  8.05108167e-06  1.27879454e+00  1.02216113e+00 
 2.00948644e-06  1.80000000e+00  0.00000000e+00  0.00000000e+00  0.00000000e+00  1.79992759e+00  1.79997166e+00  3.26703153e-03  2.03117720e-06  1.25603091e-05  1.21148476e+00  1.08956130e+00 
 2.01519939e-06  1.80000000e+00  0.00000000e+00  0.00000000e+00  0.00000000e+00  1.79988406e+00  1.79997491e+00  3.14483882e-03 -1.28670255e-06 -9.23660717e-06  1.16693847e+00  1.13414527e+00 
 2.02459485e-06  1.80000000e+00  0.00000000e+00  0.00000000e+00  0.00000000e+00  1.80003570e+00  1.80001923e+00  3.14942373e-03 -8.42742205e-07  1.05663019e-05  1.15120520e+00  1.14990161e+00 
 2.03890837e-06  1.80000000e+00  0.00000000e+00  0.00000000e+00  0.00000000e+00  1.79990262e+00  1.79998237e+00  3.11945753e-03  5.45183586e-08 -1.00085172e-05  1.15045430e+00  1.15066021e+00 
 2.06318766e-06  1.80000000e+00  0.00000000e+00  0.00000000e+00  0.00000000e+00  1.80004651e+00  1.80001524e+00  3.13522773e-03 -5.08626685e-07  1.05033952e-05  1.15060519e+00  1.15051975e+00 
 2.11174625e-06  1.80000000e+00  0.00000000e+00  0.00000000e+00  0.00000000e+00  1.79992227e+00  1.79998439e+00  3.12450422e-03  3.77647864e-07 -9.98506343e-06  1.15054006e+00  1.15059321e+00 
 2.20886341e-06  1.80000000e+00  0.00000000e+00  0.00000000e+00  0.00000000e+00  1.80005794e+00  1.80001432e+00  3.13223719e-03 -2.30986691e-07  1.04769621e-05  1.15059573e+00  1.15055164e+00 
 2.40309774e-06  1.80000000e+00  0.00000000e+00  0.00000000e+00  0.00000000e+00  1.79993183e+00  1.79998482e+00  3.12542956e-03  5.39547456e-07 -9.97515380e-06  1.15056040e+00  1.15059907e+00 
 2.79156640e-06  1.80000000e+00  0.00000000e+00  0.00000000e+00  0.00000000e+00  1.80006246e+00  1.80001411e+00  3.13157679e-03 -1.35451703e-07  1.04704917e-05  1.15060888e+00  1.15057161e+00 
 3.29156640e-06  1.80000000e+00  0.00000000e+00  0.00000000e+00  0.00000000e+00  1.79993464e+00  1.79998495e+00  3.12572902e-03  5.81949997e-07 -9.97175689e-06  1.15058090e+00  1.15061609e+00 
 3.79156640e-06  1.80000000e+00  0.00000000e+00  0.00000000e+00  0.00000000e+00  1.80006323e+00  1.80001401e+00  3.13130661e-03 -1.16754408e-07  1.04673764e-05  1.15062502e+00  1.15059081e+00 
 3.99900000e-06  1.80000000e+00  0.00000000e+00  0.00000000e+00  0.00000000e+00  1.79993531e+00  1.79998513e+00  3.12620633e-03  5.87388350e-07 -9.96644683e-06  1.15059487e+00  1.15062531e+00 
 3.99910000e-06  1.62000000e+00  0.00000000e+00  0.00000000e+00  0.00000000e+00  1.79997054e+00  1.79998944e+00  3.12451635e-03  2.28298121e-07 -4.53081031e-06  1.15053862e+00  1.15056884e+00 
 3.99930000e-06  1.26000000e+00  0.00000000e+00  0.00000000e+00  0.00000000e+00  1.80000341e+00  1.79999515e+00  3.12259693e-03 -2.45384541e-09  1.39635040e-06  1.15044777e+00  1.15047715e+00 
 3.99970000e-06  5.40000000e-01  0.00000000e+00  0.00000000e+00  0.00000000e+00  1.79999881e+00  1.79999908e+00  3.12234003e-03  7.35976659e-07  1.01691302e-06  1.15062746e+00  1.15065585e+00 
 4.00000000e-06  6.27276009e-13  0.00000000e+00  0.00000000e+00  0.00000000e+00  1.79999988e+00  1.79999882e+00  3.12325861e-03 -1.98695414e-07  2.68668443e-08  1.15050704e+00  1.15053535e+00 
 4.00005226e-06  0.00000000e+00  0.00000000e+00  9.40614127e-02  0.00000000e+00  1.80000110e+00  1.79999876e+00  3.20548404e-03 -3.18551699e-08  2.36495005e-07  1.15050477e+00  1.15053306e+00 
 4.00015677e-06  0.00000000e+00  0.00000000e+00  2.82184238e-01  0.00000000e+00  1.80000242e+00  1.79999816e+00  3.36769608e-03  1.82585937e-07  4.17846399e-07  1.15050419e+00  1.15053247e+00 
 4.00036579e-06  0.00000000e+00  0.00000000e+00  6.58429889e-01  0.00000000e+00  1.80000791e+00  1.79999935e+00  4.16363424e-03  2.52405435e-07  3.86091258e-07  1.15050465e+00  1.15053291e+00 
 4.00059008e-06  0.00000000e+00  0.00000000e+00  1.06214480e+00  0.00000000e+00  1.80029868e+00  1.80014607e+00  3.22658558e-02  3.62781989e-07  3.64704307e-07  1.15050425e+00  1.15053251e+00 
 4.00079285e-06  0.00000000e+00  0.00000000e+00  1.42713463e+00  0.00000000e+00  1.80114258e+00  1.79997259e+00  1.30215327e-01  6.11951543e-07  3.46316552e-07  1.15050459e+00  1.15053283e+00 
 4.00100000e-06  0.00000000e+00  0.00000000e+00  1.80000000e+00  0.00000000e+00  1.80335425e+00  1.32886355e+00  3.79642824e-01  1.01893614e-06 -4.11013929e-07  1.15050443e+00  1.15053265e+00 
 4.00103123e-06  0.00000000e+00  0.00000000e+00  1.80000000e+00  0.00000000e+00  1.80361260e+00  1.13804325e+00  4.24499992e-01  8.98135637e-07 -4.16330238e-07  1.15050459e+00  1.15053280e+00 
 4.00109368e-06  0.00000000e+00  0.00000000e+00  1.80000000e+00  0.00000000e+00  1.80401648e+00  8.01887807e-01  4.99543214e-01  7.73867519e-07 -1.21881431e-07  1.15050474e+00  1.15053292e+00 
 4.00121859e-06  0.00000000e+00  0.00000000e+00  1.80000000e+00  0.00000000e+00  1.80450911e+00  6.36278896e-01  5.83578097e-01  3.83018543e-06  3.78983093e-06  1.15050480e+00  1.15053298e+00 
 4.00136846e-06  0.00000000e+00  0.00000000e+00  1.80000000e+00  0.00000000e+00  1.80171314e+00  6.48125289e-01  6.18066581e-01 -1.30019797e-06 -1.07413853e-06  1.15050478e+00  1.15053297e+00 
 4.00164548e-06  0.00000000e+00  0.00000000e+00  1.80000000e+00  0.00000000e+00  1.80052844e+00  6.17245641e-01  6.30132222e-01  2.08224978e-07  8.04066184e-07  1.15050455e+00  1.15053278e+00 
 4.00195688e-06  0.00000000e+00  0.00000000e+00  1.80000000e+00  0.00000000e+00  1.79943756e+00  6.47998126e-01  6.33879712e-01 -3.54809438e-08 -4.53841133e-07  1.15050430e+00  1.15053257e+00 
 4.00257100e-06  0.00000000e+00  0.00000000e+00  1.80000000e+00  0.00000000e+00  1.78973011e+00  6.32689996e-01  6.43218178e-01 -1.82449280e-06  6.16397834e-07  1.15050380e+00  1.15053212e+00 
 4.00361189e-06  0.00000000e+00  0.00000000e+00  1.80000000e+00  0.00000000e+00  1.78514398e+00  6.70458415e-01  6.56447331e-01  1.17755686e-06 -6.78260445e-08  1.15050335e+00  1.15053170e+00 
 4.00532546e-06  0.00000000e+00  0.00000000e+00  1.80000000e+00  0.00000000e+00  1.78042765e+00  6.63750089e-01  6.73559621e-01 -1.04266270e-06  5.36977981e-07  1.15050336e+00  1.15053162e+00 
 4.00855064e-06  0.00000000e+00  0.00000000e+00  1.80000000e+00  0.00000000e+00  1.76912620e+00  7.09233156e-01  6.91449250e-01  8.66329088e-07 -2.65571590e-08  1.15050419e+00  1.15053223e+00 
 4.01388895e-06  0.00000000e+00  0.00000000e+00  1.80000000e+00  0.00000000e+00  1.76540856e+00  6.90343779e-01  6.99147154e-01 -4.96813527e-07  5.15978272e-07  1.15050494e+00  1.15053270e+00 
 4.02351468e-06  0.00000000e+00  0.00000000e+00  1.80000000e+00  0.00000000e+00  1.76352411e+00  7.18533065e-01  6.99512502e-01  9.25948066e-07 -1.41474199e-08  1.15050513e+00  1.15053257e+00 
 4.03953983e-06  0.00000000e+00  0.00000000e+00  1.80000000e+00  0.00000000e+00  1.76516040e+00  6.90751057e-01  6.99435142e-01 -4.31686285e-07  5.08539689e-07  1.15050565e+00  1.15053250e+00 
 4.07159012e-06  0.00000000e+00  0.00000000e+00  1.80000000e+00  0.00000000e+00  1.76354550e+00  7.18446751e-01  6.99481614e-01  8.93915584e-07 -1.02440197e-08  1.15050678e+00  1.15053247e+00 
 4.13569072e-06  0.00000000e+00  0.00000000e+00  1.80000000e+00  0.00000000e+00  1.76515379e+00  6.90774820e-01  6.99430818e-01 -4.13915382e-07  5.06613838e-07  1.15050888e+00  1.15053225e+00 
 4.26389191e-06  0.00000000e+00  0.00000000e+00  1.80000000e+00  0.00000000e+00  1.76354798e+00  7.18433958e-01  6.99484793e-01  8.88075925e-07 -9.29221264e-09  1.15051322e+00  1.15053200e+00 
 4.52029429e-06  0.00000000e+00  0.00000000e+00  1.80000000e+00  0.00000000e+00  1.76515257e+00  6.90780188e-01  6.99429153e-01 -4.07163762e-07  5.06135496e-07  1.15052163e+00  1.15053130e+00 
 5.02029429e-06  0.00000000e+00  0.00000000e+00  1.80000000e+00  0.00000000e+00  1.76354866e+00  7.18430707e-01  6.99485778e-01  8.88670458e-07 -9.05182064e-09  1.15053790e+00  1.15053012e+00 
 5.52029429e-06  0.00000000e+00  0.00000000e+00  1.80000000e+00  0.00000000e+00  1.76515229e+00  6.90782917e-01  6.99428699e-01 -4.03528110e-07  5.05971332e-07  1.15055375e+00  1.15052882e+00 
 5.99900000e-06  0.00000000e+00  0.00000000e+00  1.80000000e+00  0.00000000e+00  1.76354943e+00  7.18378392e-01  6.99486795e-01  8.88637836e-07 -8.88775769e-09  1.15056883e+00  1.15052769e+00 
 5.99910000e-06  0.00000000e+00  0.00000000e+00  1.62000000e+00  0.00000000e+00  1.76422934e+00  7.04909487e-01  6.98640120e-01  6.96326995e-07  1.20314331e-07  1.15056882e+00  1.15052768e+00 
 5.99930000e-06  0.00000000e+00  0.00000000e+00  1.26000000e+00  0.00000000e+00  1.76515289e+00  7.01404062e-01  6.96671089e-01  6.81669974e-07  3.97570761e-07  1.15056883e+00  1.15052767e+00 
 5.99970000e-06  0.00000000e+00  0.00000000e+00  5.40000000e-01  0.00000000e+00  1.76713921e+00  7.04213304e-01  6.93254118e-01  6.23301654e-07  1.38288944e-07  1.15056884e+00  1.15052767e+00 
 6.00000000e-06  0.00000000e+00  0.00000000e+00  1.38955514e-12  0.00000000e+00  1.76883282e+00  7.03263512e-01  6.90986138e-01  7.43088586e-07  3.37774020e-07  1.15056884e+00  1.15052766e+00 
 6.00008000e-06  0.00000000e+00  0.00000000e+00  0.00000000e+00  1.44000000e-01  1.76919759e+00  7.04566227e-01  6.90484022e-01  1.73660556e-06  2.34300532e-06  1.15056890e+00  1.15052773e+00 
 6.00024000e-06  0.00000000e+00  0.00000000e+00  0.00000000e+00  4.32000000e-01  1.76984021e+00  7.05969231e-01  6.89605069e-01  9.01269967e-07  1.66275296e-06  1.15056902e+00  1.15052783e+00 
 6.00045249e-06  0.00000000e+00  0.00000000e+00  0.00000000e+00  8.14475583e-01  1.77076053e+00  7.07521905e-01  6.88498302e-01  3.79677108e-07 -8.19376209e-05  1.15056792e+00  1.15052581e+00 
 6.00068956e-06  0.00000000e+00  0.00000000e+00  0.00000000e+00  1.24119940e+00  1.77022197e+00  7.09584428e-01  6.87047430e-01 -2.18211760e-06  8.54402826e-02  1.15057761e+00  1.15054895e+00 
 6.00090397e-06  0.00000000e+00  0.00000000e+00  0.00000000e+00  1.62715368e+00  1.77347551e+00  7.11332961e-01  6.85674735e-01  1.39030479e-06  1.80032786e-01  1.15056917e+00  1.15055457e+00 
 6.00100000e-06  0.00000000e+00  0.00000000e+00  0.00000000e+00  1.80000000e+00  1.77625023e+00  7.12249627e-01  6.85016437e-01  1.69388655e-06  1.83711818e-01  1.15055002e+00  1.15053047e+00 
 6.00102737e-06  0.00000000e+00  0.00000000e+00  0.00000000e+00  1.80000000e+00  1.77504084e+00  7.12471571e-01  6.84776742e-01 -1.04723053e-06  1.83737462e-01  1.15055321e+00  1.15052241e+00 
 6.00108210e-06  0.00000000e+00  0.00000000e+00  0.00000000e+00  1.80000000e+00  1.77400192e+00  7.12966996e-01  6.84334805e-01 -2.89364957e-06  1.84334127e-01  1.15059374e+00  1.15050646e+00 
 6.00119157e-06  0.00000000e+00  0.00000000e+00  0.00000000e+00  1.80000000e+00  1.77318770e+00  7.14000909e-01  6.83523841e-01 -6.25975016e-06  1.85133552e-01  1.15095198e+00  1.15047341e+00 
 6.00141052e-06  0.00000000e+00  0.00000000e+00  0.00000000e+00  1.80000000e+00  1.77175975e+00  7.16071175e-01  6.81713621e-01 -1.34822100e-05  1.85235872e-01  1.15218880e+00  1.15037488e+00 
 6.00184840e-06  0.00000000e+00  0.00000000e+00  0.00000000e+00  1.80000000e+00  1.77310537e+00  7.20446670e-01  6.77467248e-01 -3.62364707e-06  1.85694594e-01  1.15368401e+00  1.15013708e+00 
 6.00211402e-06  0.00000000e+00  0.00000000e+00  0.00000000e+00  1.80000000e+00  1.77653389e+00  7.23402529e-01  6.74598350e-01  2.87992049e-06  1.85919072e-01  1.15399469e+00  1.15012352e+00 
 6.00234594e-06  0.00000000e+00  0.00000000e+00  0.00000000e+00  1.80000000e+00  1.77823078e+00  7.26190673e-01  6.71841906e-01  1.58505277e-06  1.85998362e-01  1.15433071e+00  1.15012098e+00 
 6.00262902e-06  0.00000000e+00  0.00000000e+00  0.00000000e+00  1.80000000e+00  1.77964853e+00  7.29826453e-01  6.68120115e-01  1.36061520e-06  1.85935639e-01  1.15473843e+00  1.15011981e+00 
