 time            v(sh)           v(pre)          v(rst)          v(sen)          v(d)            v(CompOut)      v(AOut)         v(STO+_RCL-)    v(sto-_rcl+)    v(c+)           v(c-)          
 0.00000000e+00  0.00000000e+00  0.00000000e+00  0.00000000e+00  0.00000000e+00  1.79999997e+00  1.79999938e+00  5.15494822e-03  2.48494660e-07  2.48494675e-07  1.48724435e+00  9.00900335e-01 
 1.00000000e-09  0.00000000e+00  1.80000000e-02  0.00000000e+00  0.00000000e+00  1.79999997e+00  1.79999938e+00  5.15496045e-03  2.53300119e-07  2.53276296e-07  1.48724876e+00  9.00904743e-01 
 2.00000000e-09  0.00000000e+00  3.60000000e-02  0.00000000e+00  0.00000000e+00  1.79999997e+00  1.79999938e+00  5.15497063e-03  2.53781038e-07  2.53718477e-07  1.48725316e+00  9.00909147e-01 
 4.00000000e-09  0.00000000e+00  7.20000000e-02  0.00000000e+00  0.00000000e+00  1.79999998e+00  1.79999938e+00  5.15498823e-03  2.54037694e-07  2.53896614e-07  1.48726196e+00  9.00917956e-01 
 8.00000000e-09  0.00000000e+00  1.44000000e-01  0.00000000e+00  0.00000000e+00  1.79999998e+00  1.79999938e+00  5.15501736e-03  2.54163199e-07  2.53912480e-07  1.48727956e+00  9.00935576e-01 
 1.60000000e-08  0.00000000e+00  2.88000000e-01  0.00000000e+00  0.00000000e+00  1.79999998e+00  1.79999938e+00  5.15507545e-03  2.54307443e-07  2.53962912e-07  1.48731477e+00  9.00970823e-01 
 3.20000000e-08  0.00000000e+00  5.76000000e-01  0.00000000e+00  0.00000000e+00  1.79999998e+00  1.79999938e+00  5.15519504e-03  2.54271078e-07  2.53877589e-07  1.48738499e+00  9.01041299e-01 
 6.40000000e-08  0.00000000e+00  1.15200000e+00  0.00000000e+00  0.00000000e+00  1.80002596e+00  1.79999942e+00  5.60286381e-03  1.08961177e-05  7.39932621e-06  1.74738799e+00  8.80164501e-01 
 9.44866958e-08  0.00000000e+00  1.70076052e+00  0.00000000e+00  0.00000000e+00  1.79993670e+00  1.79999886e+00  5.66612961e-03 -2.07510563e-05 -2.05476621e-05  1.83293635e+00  5.37566289e-01 
 1.00000000e-07  0.00000000e+00  1.80000000e+00  0.00000000e+00  0.00000000e+00  1.79995247e+00  1.79999604e+00  5.67207779e-03  1.89920441e-06  3.67897371e-07  1.80188188e+00  4.93318886e-01 
 1.02025172e-07  0.00000000e+00  1.80000000e+00  0.00000000e+00  0.00000000e+00  1.79995866e+00  1.80000060e+00  5.66933487e-03  9.54457981e-07 -1.46894019e-07  1.80113960e+00  4.97373811e-01 
 1.06075515e-07  0.00000000e+00  1.80000000e+00  0.00000000e+00  0.00000000e+00  1.79997136e+00  1.80000244e+00  5.66461861e-03  3.93090795e-08 -8.94592116e-07  1.80024066e+00  5.00562489e-01 
 1.14176202e-07  0.00000000e+00  1.80000000e+00  0.00000000e+00  0.00000000e+00  1.79998927e+00  1.79999870e+00  5.65066499e-03  3.61463037e-07  8.18601762e-08  1.79996822e+00  4.99713805e-01 
 1.30377576e-07  0.00000000e+00  1.80000000e+00  0.00000000e+00  0.00000000e+00  1.80000162e+00  1.79999973e+00  5.64984801e-03  1.01575981e-07  2.50858513e-07  1.80001365e+00  5.00206630e-01 
 1.60870304e-07  0.00000000e+00  1.80000000e+00  0.00000000e+00  0.00000000e+00  1.79999764e+00  1.79999914e+00  5.65182938e-03  3.47336967e-07  3.54039472e-07  1.79999041e+00  4.99826486e-01 
 2.21855759e-07  0.00000000e+00  1.80000000e+00  0.00000000e+00  0.00000000e+00  1.80000207e+00  1.79999958e+00  5.64932649e-03  1.51498669e-07  2.88986876e-07  1.80000720e+00  5.00159488e-01 
 3.43826671e-07  0.00000000e+00  1.80000000e+00  0.00000000e+00  0.00000000e+00  1.79999789e+00  1.79999919e+00  5.65198620e-03  3.31012253e-07  3.18179172e-07  1.79999285e+00  4.99846049e-01 
 4.00000000e-07  0.00000000e+00  1.80000000e+00  0.00000000e+00  0.00000000e+00  1.80000185e+00  1.79999954e+00  5.64927990e-03  1.66641033e-07  2.68550902e-07  1.80000512e+00  5.00139018e-01 
 4.10000000e-07  0.00000000e+00  1.62000000e+00  0.00000000e+00  0.00000000e+00  1.80000010e+00  1.79999939e+00  5.65063159e-03  2.31621307e-07  2.82086388e-07  1.79999051e+00  5.00001511e-01 
 4.30000000e-07  0.00000000e+00  1.26000000e+00  0.00000000e+00  0.00000000e+00  1.79999980e+00  1.79999938e+00  5.65073163e-03  2.40475254e-07  2.76924707e-07  1.79998376e+00  4.99795098e-01 
 4.70000000e-07  0.00000000e+00  5.40000000e-01  0.00000000e+00  0.00000000e+00  1.79999999e+00  1.79999938e+00  5.65151669e-03  2.67017988e-07  3.06456907e-07  1.80072833e+00  4.99770331e-01 
 5.00000000e-07  0.00000000e+00  0.00000000e+00  0.00000000e+00  0.00000000e+00  1.79999989e+00  1.79999938e+00  5.65146892e-03  2.09483889e-07  2.43249592e-07  1.80059352e+00  4.99641451e-01 
 5.04238897e-07  0.00000000e+00  0.00000000e+00  0.00000000e+00  0.00000000e+00  1.79999990e+00  1.79999938e+00  5.65142145e-03  2.42755154e-07  2.76509897e-07  1.80059291e+00  4.99641780e-01 
 5.12716691e-07  0.00000000e+00  0.00000000e+00  0.00000000e+00  0.00000000e+00  1.79999993e+00  1.79999938e+00  5.65141043e-03  2.43772525e-07  2.77525582e-07  1.80059197e+00  4.99642655e-01 
 5.29672278e-07  0.00000000e+00  0.00000000e+00  0.00000000e+00  0.00000000e+00  1.79999994e+00  1.79999938e+00  5.65141415e-03  2.43145514e-07  2.75848361e-07  1.80059009e+00  4.99644388e-01 
 5.63583454e-07  0.00000000e+00  0.00000000e+00  0.00000000e+00  0.00000000e+00  1.79999996e+00  1.79999938e+00  5.65139685e-03  2.44664622e-07  2.75512058e-07  1.80058633e+00  4.99647856e-01 
 6.31405804e-07  0.00000000e+00  0.00000000e+00  0.00000000e+00  0.00000000e+00  1.79999995e+00  1.79999938e+00  5.65140560e-03  2.43287450e-07  2.69381704e-07  1.80057882e+00  4.99654791e-01 
 7.67050506e-07  0.00000000e+00  0.00000000e+00  0.00000000e+00  0.00000000e+00  1.79999996e+00  1.79999938e+00  5.65137719e-03  2.44840513e-07  2.64131487e-07  1.80056378e+00  4.99668656e-01 
 1.03833991e-06  0.00000000e+00  0.00000000e+00  0.00000000e+00  0.00000000e+00  1.79999995e+00  1.79999938e+00  5.65135838e-03  2.43593309e-07  2.53987259e-07  1.80053372e+00  4.99696366e-01 
 1.53833991e-06  0.00000000e+00  0.00000000e+00  0.00000000e+00  0.00000000e+00  1.79999996e+00  1.79999938e+00  5.65127257e-03  2.45354752e-07  2.49323260e-07  1.80047834e+00  4.99747368e-01 
 2.00000000e-06  0.00000000e+00  0.00000000e+00  0.00000000e+00  0.00000000e+00  1.79999995e+00  1.79999938e+00  5.65121680e-03  2.44146374e-07  2.46512362e-07  1.80042723e+00  4.99794383e-01 
 2.00010000e-06  1.80000000e-01  0.00000000e+00  0.00000000e+00  0.00000000e+00  1.79999996e+00  1.79999937e+00  5.65125131e-03  3.86234631e-07  3.86596462e-07  1.80047168e+00  4.99838866e-01 
 2.00030000e-06  5.40000000e-01  0.00000000e+00  0.00000000e+00  0.00000000e+00  1.80000001e+00  1.79999936e+00  5.65139259e-03  5.17320413e-07  5.07224899e-07  1.80056014e+00  4.99927529e-01 
 2.00070000e-06  1.26000000e+00  0.00000000e+00  0.00000000e+00  0.00000000e+00  1.79998485e+00  1.80000249e+00  5.60120614e-03 -2.43419293e-05  2.29890388e-05  1.76789662e+00  5.31805978e-01 
 2.00100000e-06  1.80000000e+00  0.00000000e+00  0.00000000e+00  0.00000000e+00  1.79994727e+00  1.80000886e+00  5.43996177e-03 -5.19877397e-05  5.54768980e-05  1.70347695e+00  5.96856002e-01 
 2.00104475e-06  1.80000000e+00  0.00000000e+00  0.00000000e+00  0.00000000e+00  1.79993920e+00  1.80001001e+00  5.40202392e-03 -5.41300312e-05  5.73625029e-05  1.69195278e+00  6.08407835e-01 
 2.00113426e-06  1.80000000e+00  0.00000000e+00  0.00000000e+00  0.00000000e+00  1.79992302e+00  1.80001208e+00  5.33054292e-03 -5.63743887e-05  5.94959114e-05  1.66977264e+00  6.30619528e-01 
 2.00131327e-06  1.80000000e+00  0.00000000e+00  0.00000000e+00  0.00000000e+00  1.79989236e+00  1.80001342e+00  5.23058265e-03 -5.50707688e-05  5.86656831e-05  1.63015647e+00  6.70285663e-01 
 2.00167129e-06  1.80000000e+00  0.00000000e+00  0.00000000e+00  0.00000000e+00  1.79984119e+00  1.80002311e+00  5.14064853e-03 -4.99201551e-05  5.03891567e-05  1.56586892e+00  7.34651960e-01 
 2.00238733e-06  1.80000000e+00  0.00000000e+00  0.00000000e+00  0.00000000e+00  1.79979874e+00  1.80005177e+00  5.05018330e-03 -4.33692543e-05  5.59232020e-05  1.47583305e+00  8.24812703e-01 
 2.00381940e-06  1.80000000e+00  0.00000000e+00  0.00000000e+00  0.00000000e+00  1.79975815e+00  1.79996453e+00  4.86980281e-03 -3.48941457e-05  5.81463310e-05  1.36930571e+00  9.31503054e-01 
 2.00610471e-06  1.80000000e+00  0.00000000e+00  0.00000000e+00  0.00000000e+00  1.79969462e+00  1.79994463e+00  4.48104832e-03 -1.21152355e-05  8.04287961e-06  1.27877657e+00  1.02215635e+00 
 2.00948644e-06  1.80000000e+00  0.00000000e+00  0.00000000e+00  0.00000000e+00  1.79992729e+00  1.79988633e+00  3.94091199e-03  2.03364846e-06  1.25773125e-05  1.21146343e+00  1.08954940e+00 
 2.01519925e-06  1.80000000e+00  0.00000000e+00  0.00000000e+00  0.00000000e+00  1.79988415e+00  1.79999665e+00  3.59942402e-03 -1.28668574e-06 -9.24496282e-06  1.16692058e+00  1.13412685e+00 
 2.02459436e-06  1.80000000e+00  0.00000000e+00  0.00000000e+00  0.00000000e+00  1.80003559e+00  1.79999352e+00  3.54547989e-03 -8.43993479e-07  1.05708351e-05  1.15118766e+00  1.14988247e+00 
 2.03890824e-06  1.80000000e+00  0.00000000e+00  0.00000000e+00  0.00000000e+00  1.79990274e+00  1.80000566e+00  3.48765456e-03  5.57493376e-08 -1.00111379e-05  1.15043597e+00  1.15064206e+00 
 2.06318862e-06  1.80000000e+00  0.00000000e+00  0.00000000e+00  0.00000000e+00  1.80004640e+00  1.79999331e+00  3.52508020e-03 -5.09773182e-07  1.05050468e-05  1.15058690e+00  1.15050142e+00 
 2.11174938e-06  1.80000000e+00  0.00000000e+00  0.00000000e+00  0.00000000e+00  1.79992238e+00  1.80000578e+00  3.49449364e-03  3.78822311e-07 -9.98627228e-06  1.15052181e+00  1.15057497e+00 
 2.20887090e-06  1.80000000e+00  0.00000000e+00  0.00000000e+00  0.00000000e+00  1.80005783e+00  1.79999326e+00  3.52130072e-03 -2.32140939e-07  1.04779585e-05  1.15057742e+00  1.15053333e+00 
 2.40311394e-06  1.80000000e+00  0.00000000e+00  0.00000000e+00  0.00000000e+00  1.79993194e+00  1.80000576e+00  3.49580364e-03  5.40709674e-07 -9.97604552e-06  1.15054216e+00  1.15058082e+00 
 2.79160002e-06  1.80000000e+00  0.00000000e+00  0.00000000e+00  0.00000000e+00  1.80006235e+00  1.79999327e+00  3.52053394e-03 -1.36609708e-07  1.04713317e-05  1.15059057e+00  1.15055331e+00 
 3.29160002e-06  1.80000000e+00  0.00000000e+00  0.00000000e+00  0.00000000e+00  1.79993475e+00  1.80000576e+00  3.49628929e-03  5.83110042e-07 -9.97255636e-06  1.15056265e+00  1.15059783e+00 
 3.79160002e-06  1.80000000e+00  0.00000000e+00  0.00000000e+00  0.00000000e+00  1.80006312e+00  1.79999327e+00  3.52026422e-03 -1.17913917e-07  1.04681357e-05  1.15060671e+00  1.15057250e+00 
 3.99900000e-06  1.80000000e+00  0.00000000e+00  0.00000000e+00  0.00000000e+00  1.79993542e+00  1.80000574e+00  3.49696752e-03  5.88549642e-07 -9.96710924e-06  1.15057663e+00  1.15060705e+00 
 3.99910000e-06  1.62000000e+00  0.00000000e+00  0.00000000e+00  0.00000000e+00  1.79997061e+00  1.80000617e+00  3.49791874e-03  2.28644566e-07 -4.53504549e-06  1.15052035e+00  1.15055058e+00 
 3.99930000e-06  1.26000000e+00  0.00000000e+00  0.00000000e+00  0.00000000e+00  1.80000343e+00  1.80000403e+00  3.49939409e-03 -2.80498362e-09  1.38976330e-06  1.15042949e+00  1.15045888e+00 
 3.99970000e-06  5.40000000e-01  0.00000000e+00  0.00000000e+00  0.00000000e+00  1.79999880e+00  1.80000079e+00  3.50060114e-03  7.35868587e-07  1.01407300e-06  1.15060916e+00  1.15063758e+00 
 4.00000000e-06  6.27276009e-13  0.00000000e+00  0.00000000e+00  0.00000000e+00  1.79999988e+00  1.80000004e+00  3.50179221e-03 -1.98751476e-07  2.51578677e-08  1.15048875e+00  1.15051707e+00 
 4.00005226e-06  0.00000000e+00  0.00000000e+00  9.40619575e-02  0.00000000e+00  1.80000110e+00  1.79999962e+00  3.58400609e-03 -3.19173682e-08  2.34906524e-07  1.15048647e+00  1.15051478e+00 
 4.00015677e-06  0.00000000e+00  0.00000000e+00  2.82185873e-01  0.00000000e+00  1.80000242e+00  1.79999845e+00  3.74610135e-03  1.82527501e-07  4.16543680e-07  1.15048589e+00  1.15051419e+00 
 4.00036580e-06  0.00000000e+00  0.00000000e+00  6.58433703e-01  0.00000000e+00  1.80000788e+00  1.79999925e+00  4.53948913e-03  2.52360587e-07  3.85250231e-07  1.15048635e+00  1.15051463e+00 
 4.00059006e-06  0.00000000e+00  0.00000000e+00  1.06211260e+00  0.00000000e+00  1.80029861e+00  1.80014783e+00  3.26281188e-02  3.62755326e-07  3.64189700e-07  1.15048595e+00  1.15051423e+00 
 4.00079290e-06  0.00000000e+00  0.00000000e+00  1.42722758e+00  0.00000000e+00  1.80114364e+00  1.79998277e+00  1.30659453e-01  6.12370186e-07  3.46079287e-07  1.15048629e+00  1.15051455e+00 
 4.00100000e-06  0.00000000e+00  0.00000000e+00  1.80000000e+00  0.00000000e+00  1.80335889e+00  1.32771921e+00  3.80254534e-01  1.01924471e-06 -4.20785547e-07  1.15048615e+00  1.15051437e+00 
 4.00103122e-06  0.00000000e+00  0.00000000e+00  1.80000000e+00  0.00000000e+00  1.80361840e+00  1.13652651e+00  4.25160597e-01  8.98343673e-07 -4.28551207e-07  1.15048631e+00  1.15051452e+00 
 4.00109366e-06  0.00000000e+00  0.00000000e+00  1.80000000e+00  0.00000000e+00  1.80402828e+00  8.00738191e-01  5.00314880e-01  7.82948618e-07 -1.26332206e-07  1.15048646e+00  1.15051464e+00 
 4.00121854e-06  0.00000000e+00  0.00000000e+00  1.80000000e+00  0.00000000e+00  1.80452266e+00  6.35855112e-01  5.84562006e-01  3.83891411e-06  3.79280862e-06  1.15048653e+00  1.15051471e+00 
 4.00136812e-06  0.00000000e+00  0.00000000e+00  1.80000000e+00  0.00000000e+00  1.80172659e+00  6.47459889e-01  6.19125012e-01 -1.30440723e-06 -1.07451671e-06  1.15048650e+00  1.15051469e+00 
 4.00164510e-06  0.00000000e+00  0.00000000e+00  1.80000000e+00  0.00000000e+00  1.80053772e+00  6.16528111e-01  6.31225661e-01  2.12517959e-07  8.14617573e-07  1.15048626e+00  1.15051450e+00 
 4.00195620e-06  0.00000000e+00  0.00000000e+00  1.80000000e+00  0.00000000e+00  1.79931517e+00  6.47039402e-01  6.34870950e-01 -8.42958168e-08 -4.60897685e-07  1.15048599e+00  1.15051429e+00 
 4.00256978e-06  0.00000000e+00  0.00000000e+00  1.80000000e+00  0.00000000e+00  1.78936669e+00  6.31589818e-01  6.44055722e-01 -1.84697414e-06  6.22825430e-07  1.15048544e+00  1.15051382e+00 
 4.00360822e-06  0.00000000e+00  0.00000000e+00  1.80000000e+00  0.00000000e+00  1.78502906e+00  6.68827985e-01  6.57009057e-01  1.22632886e-06 -7.22161982e-08  1.15048495e+00  1.15051340e+00 
 4.00531757e-06  0.00000000e+00  0.00000000e+00  1.80000000e+00  0.00000000e+00  1.78024843e+00  6.61851952e-01  6.73871508e-01 -1.08839042e-06  5.40459382e-07  1.15048494e+00  1.15051332e+00 
 4.00853263e-06  0.00000000e+00  0.00000000e+00  1.80000000e+00  0.00000000e+00  1.76903996e+00  7.06771221e-01  6.91651445e-01  9.10429437e-07 -2.99278332e-08  1.15048583e+00  1.15051393e+00 
 4.01385272e-06  0.00000000e+00  0.00000000e+00  1.80000000e+00  0.00000000e+00  1.76511399e+00  6.88269450e-01  6.99546612e-01 -5.44890844e-07  5.19100972e-07  1.15048664e+00  1.15051442e+00 
 4.02344082e-06  0.00000000e+00  0.00000000e+00  1.80000000e+00  0.00000000e+00  1.76318990e+00  7.16297824e-01  7.00014662e-01  9.71533876e-07 -1.71500761e-08  1.15048682e+00  1.15051428e+00 
 4.03942513e-06  0.00000000e+00  0.00000000e+00  1.80000000e+00  0.00000000e+00  1.76480304e+00  6.88753567e-01  6.99921502e-01 -4.76544408e-07  5.11492861e-07  1.15048734e+00  1.15051422e+00 
 4.07139374e-06  0.00000000e+00  0.00000000e+00  1.80000000e+00  0.00000000e+00  1.76321931e+00  7.16194769e-01  6.99969559e-01  9.38434489e-07 -1.31744572e-08  1.15048847e+00  1.15051419e+00 
 4.13533095e-06  0.00000000e+00  0.00000000e+00  1.80000000e+00  0.00000000e+00  1.76479484e+00  6.88780544e-01  6.99920839e-01 -4.58283931e-07  5.09533242e-07  1.15049056e+00  1.15051397e+00 
 4.26320539e-06  0.00000000e+00  0.00000000e+00  1.80000000e+00  0.00000000e+00  1.76322217e+00  7.16180567e-01  6.99971475e-01  9.32369491e-07 -1.22062283e-08  1.15049489e+00  1.15051372e+00 
 4.51895426e-06  0.00000000e+00  0.00000000e+00  1.80000000e+00  0.00000000e+00  1.76479328e+00  6.88786349e-01  6.99920025e-01 -4.51407377e-07  5.09046755e-07  1.15050328e+00  1.15051302e+00 
 5.01895426e-06  0.00000000e+00  0.00000000e+00  1.80000000e+00  0.00000000e+00  1.76322257e+00  7.16176827e-01  6.99972659e-01  9.32910414e-07 -1.19619435e-08  1.15051956e+00  1.15051184e+00 
 5.51895426e-06  0.00000000e+00  0.00000000e+00  1.80000000e+00  0.00000000e+00  1.76479251e+00  6.88788850e-01  6.99920397e-01 -4.47737892e-07  5.08880276e-07  1.15053540e+00  1.15051053e+00 
 5.99900000e-06  0.00000000e+00  0.00000000e+00  1.80000000e+00  0.00000000e+00  1.76322303e+00  7.16127105e-01  6.99974073e-01  9.32840213e-07 -1.17957261e-08  1.15055053e+00  1.15050940e+00 
 5.99910000e-06  0.00000000e+00  0.00000000e+00  1.62000000e+00  0.00000000e+00  1.76389111e+00  7.02649690e-01  6.99220115e-01  7.11997307e-07  1.20453484e-07  1.15055052e+00  1.15050939e+00 
 5.99930000e-06  0.00000000e+00  0.00000000e+00  1.26000000e+00  0.00000000e+00  1.76472746e+00  6.98803772e-01  6.97581322e-01  6.42745235e-07  3.97804696e-07  1.15055053e+00  1.15050938e+00 
 5.99970000e-06  0.00000000e+00  0.00000000e+00  5.40000000e-01  0.00000000e+00  1.76624803e+00  7.00449214e-01  6.95251232e-01  5.07805478e-07  1.37195357e-07  1.15055053e+00  1.15050938e+00 
 6.00000000e-06  0.00000000e+00  0.00000000e+00  1.38955514e-12  0.00000000e+00  1.76742929e+00  6.98616121e-01  6.93922795e-01  5.98757332e-07  3.36471220e-07  1.15055054e+00  1.15050937e+00 
 6.00008000e-06  0.00000000e+00  0.00000000e+00  0.00000000e+00  1.44000000e-01  1.76765004e+00  6.99641865e-01  6.93686095e-01  1.59198040e-06  2.34181544e-06  1.15055060e+00  1.15050944e+00 
 6.00024000e-06  0.00000000e+00  0.00000000e+00  0.00000000e+00  4.32000000e-01  1.76800067e+00  7.00499100e-01  6.93357309e-01  7.54248596e-07  1.66208953e-06  1.15055071e+00  1.15050954e+00 
 6.00045249e-06  0.00000000e+00  0.00000000e+00  0.00000000e+00  8.14475575e-01  1.76851404e+00  7.01303283e-01  6.93036563e-01  2.24735978e-07 -8.19088284e-05  1.15054962e+00  1.15050752e+00 
 6.00068956e-06  0.00000000e+00  0.00000000e+00  0.00000000e+00  1.24119956e+00  1.76749040e+00  7.02468424e-01  6.92534304e-01 -2.34938419e-06  8.54338518e-02  1.15055931e+00  1.15053067e+00 
 6.00090397e-06  0.00000000e+00  0.00000000e+00  0.00000000e+00  1.62715398e+00  1.77029120e+00  7.03360064e-01  6.92092422e-01  1.21984344e-06  1.80029794e-01  1.15055091e+00  1.15053633e+00 
 6.00100000e-06  0.00000000e+00  0.00000000e+00  0.00000000e+00  1.80000000e+00  1.77287982e+00  7.03873502e-01  6.91875905e-01  1.53923612e-06  1.83711339e-01  1.15053173e+00  1.15051227e+00 
 6.00102737e-06  0.00000000e+00  0.00000000e+00  0.00000000e+00  1.80000000e+00  1.77161314e+00  7.03978826e-01  6.91765078e-01 -1.20069315e-06  1.83736730e-01  1.15053480e+00  1.15050423e+00 
 6.00108211e-06  0.00000000e+00  0.00000000e+00  0.00000000e+00  1.80000000e+00  1.77045589e+00  7.04238727e-01  6.91582895e-01 -3.04411959e-06  1.84333960e-01  1.15057483e+00  1.15048831e+00 
 6.00119160e-06  0.00000000e+00  0.00000000e+00  0.00000000e+00  1.80000000e+00  1.76938748e+00  7.04789932e-01  6.91309145e-01 -6.40776912e-06  1.85135180e-01  1.15093105e+00  1.15045534e+00 
 6.00141056e-06  0.00000000e+00  0.00000000e+00  0.00000000e+00  1.80000000e+00  1.76741074e+00  7.05855044e-01  6.90645874e-01 -1.36545684e-05  1.85237904e-01  1.15216567e+00  1.15035736e+00 
 6.00184850e-06  0.00000000e+00  0.00000000e+00  0.00000000e+00  1.80000000e+00  1.76759984e+00  7.08014959e-01  6.89015961e-01 -3.88077664e-06  1.85693647e-01  1.15366474e+00  1.15011984e+00 
 6.00211585e-06  0.00000000e+00  0.00000000e+00  0.00000000e+00  1.80000000e+00  1.77038184e+00  7.09487147e-01  6.87963813e-01  2.68311270e-06  1.85919605e-01  1.15397844e+00  1.15010582e+00 
 6.00234869e-06  0.00000000e+00  0.00000000e+00  0.00000000e+00  1.80000000e+00  1.77151693e+00  7.10887027e-01  6.86955081e-01  1.38897528e-06  1.85998967e-01  1.15431560e+00  1.15010326e+00 
 6.00263282e-06  0.00000000e+00  0.00000000e+00  0.00000000e+00  1.80000000e+00  1.77220650e+00  7.12708326e-01  6.85596759e-01  1.14674685e-06  1.85935935e-01  1.15472499e+00  1.15010214e+00 
